!    07.03.2025   13:27:53 
! Ref Plane: 0,000 mm
# MHZ S MA R  50
!
1000,0000     1,05467       117,50         
1010,0000     1,04783       116,07         
1020,0000     1,04073       114,65         
1030,0000     1,03353       113,26         
1040,0000     1,02667       111,87         
1050,0000     1,02014       110,52         
1060,0000     1,01384       109,23         
1070,0000     1,00759       107,95         
1080,0000     1,00167       106,74         
1090,0000     0,99617       105,55         
1100,0000     0,99085       104,38         
1110,0000     0,98542       103,22         
1120,0000     0,98027       102,06         
1130,0000     0,97496       100,86         
1140,0000     0,96972       99,61          
1150,0000     0,96412       98,29          
1160,0000     0,95836       96,91          
1170,0000     0,95282       95,45          
1180,0000     0,9471        93,96          
1190,0000     0,94138       92,44          
1200,0000     0,93536       90,86          
1210,0000     0,9294        89,29          
1220,0000     0,92332       87,73          
1230,0000     0,91719       86,19          
1240,0000     0,911         84,70          
1250,0000     0,90474       83,24          
1260,0000     0,89808       81,80          
1270,0000     0,89152       80,39          
1280,0000     0,88486       78,95          
1290,0000     0,8786        77,49          
1300,0000     0,87278       76,04          
1310,0000     0,8672        74,55          
1320,0000     0,86235       73,03          
1330,0000     0,8578        71,51          
1340,0000     0,85374       69,93          
1350,0000     0,85021       68,30          
1360,0000     0,84688       66,64          
1370,0000     0,84419       64,95          
1380,0000     0,8413        63,25          
1390,0000     0,8386        61,54          
1400,0000     0,83559       59,84          
1410,0000     0,83168       58,12          
1420,0000     0,82823       56,37          
1430,0000     0,82444       54,63          
1440,0000     0,8208        52,92          
1450,0000     0,81718       51,21          
1460,0000     0,81326       49,51          
1470,0000     0,80986       47,85          
1480,0000     0,80633       46,21          
1490,0000     0,80297       44,54          
1500,0000     0,80005       42,85          
1510,0000     0,79629       41,21          
1520,0000     0,79435       39,58          
1530,0000     0,79337       37,79          
1540,0000     0,79209       35,93          
1550,0000     0,79103       34,15          
1560,0000     0,79096       32,48          
1570,0000     0,79313       30,80          
1580,0000     0,79526       29,01          
1590,0000     0,7969        27,32          
1600,0000     0,79857       25,74          
1610,0000     0,80117       24,13          
1620,0000     0,80416       22,59          
1630,0000     0,80642       21,05          
1640,0000     0,80774       19,52          
1650,0000     0,80891       18,09          
1660,0000     0,81053       16,69          
1670,0000     0,81157       15,12          
1680,0000     0,8128        13,51          
1690,0000     0,81405       11,86          
1700,0000     0,81541       10,20          
1710,0000     0,81769       8,50           
1720,0000     0,81967       6,67           
1730,0000     0,82249       4,86           
1740,0000     0,82529       3,04           
1750,0000     0,82861       1,28           
1760,0000     0,83302       -0,43          
1770,0000     0,83796       -2,12          
1780,0000     0,8433        -3,74          
1790,0000     0,84782       -5,18          
1800,0000     0,8527        -6,43          
1810,0000     0,85871       -7,66          
1820,0000     0,86399       -8,90          
1830,0000     0,86831       -10,02         
1840,0000     0,87306       -11,02         
1850,0000     0,87835       -11,99         
1860,0000     0,8835        -13,07         
1870,0000     0,88732       -14,27         
1880,0000     0,89047       -15,50         
1890,0000     0,89408       -16,78         
1900,0000     0,89746       -18,21         
1910,0000     0,90117       -19,82         
1920,0000     0,90553       -21,56         
1930,0000     0,90896       -23,33         
1940,0000     0,91365       -25,03         
1950,0000     0,92024       -26,86         
1960,0000     0,92658       -28,77         
1970,0000     0,93225       -30,59         
1980,0000     0,93948       -32,22         
1990,0000     0,94738       -33,74         
2000,0000     0,95478       -35,18         
2010,0000     0,96102       -36,52         
2020,0000     0,96639       -37,67         
2030,0000     0,9717        -38,66         
2040,0000     0,97599       -39,67         
2050,0000     0,97924       -40,67         
2060,0000     0,98181       -41,71         
2070,0000     0,98385       -42,76         
2080,0000     0,98561       -43,82         
2090,0000     0,98839       -45,01         
2100,0000     0,99057       -46,40         
2110,0000     0,99353       -47,93         
2120,0000     0,99673       -49,58         
2130,0000     1,00137       -51,26         
2140,0000     1,00699       -53,10         
2150,0000     1,01228       -54,98         
2160,0000     1,01766       -56,85         
2170,0000     1,02394       -58,69         
2180,0000     1,02868       -60,50         
2190,0000     1,03293       -62,30         
2200,0000     1,03595       -64,04         
2210,0000     1,03865       -65,67         
2220,0000     1,03939       -67,18         
2230,0000     1,03864       -68,63         
2240,0000     1,03691       -70,07         
2250,0000     1,03263       -71,58         
2260,0000     1,02751       -73,21         
2270,0000     1,0203        -74,95         
2280,0000     1,01243       -76,88         
2290,0000     1,00196       -79,03         
2300,0000     0,99003       -81,53         
2310,0000     0,97417       -84,35         
2320,0000     0,95459       -87,50         
2330,0000     0,93168       -90,91         
2340,0000     0,90592       -94,71         
2350,0000     0,8747        -98,74         
2360,0000     0,83651       -103,12        
2370,0000     0,79082       -107,73        
2380,0000     0,73409       -112,47        
2390,0000     0,66755       -117,25        
2400,0000     0,58393       -121,97        
2410,0000     0,49328       -125,65        
2420,0000     0,38999       -128,95        
2430,0000     0,27442       -129,05        
2440,0000     0,16287       -119,01        
2450,0000     0,09663       -71,16         
2460,0000     0,16153       -24,28         
2470,0000     0,27842       -14,35         
2480,0000     0,38577       -14,80         
2490,0000     0,4891        -16,83         
2500,0000     0,57663       -20,42         
2510,0000     0,65352       -24,08         
2520,0000     0,71882       -27,84         
2530,0000     0,77384       -31,71         
2540,0000     0,8182        -35,43         
2550,0000     0,85548       -39,06         
2560,0000     0,88755       -42,41         
2570,0000     0,91826       -45,65         
2580,0000     0,94536       -48,72         
2590,0000     0,97151       -51,63         
2600,0000     0,99453       -54,31         
2610,0000     1,01637       -56,82         
2620,0000     1,03524       -59,18         
2630,0000     1,05137       -61,49         
2640,0000     1,06451       -63,46         
2650,0000     1,07613       -65,25         
2660,0000     1,08683       -66,89         
2670,0000     1,09476       -68,46         
2680,0000     1,09987       -69,98         
2690,0000     1,10327       -71,47         
2700,0000     1,10679       -72,98         
2710,0000     1,10923       -74,51         
2720,0000     1,11117       -76,09         
2730,0000     1,11251       -77,69         
2740,0000     1,11236       -79,28         
2750,0000     1,11413       -80,86         
2760,0000     1,11331       -82,52         
2770,0000     1,11292       -84,19         
2780,0000     1,11235       -85,84         
2790,0000     1,11223       -87,41         
2800,0000     1,11257       -88,96         
2810,0000     1,11224       -90,40         
2820,0000     1,11113       -91,79         
2830,0000     1,10761       -93,14         
2840,0000     1,10448       -94,33         
2850,0000     1,10279       -95,53         
2860,0000     1,10018       -96,65         
2870,0000     1,09805       -97,75         
2880,0000     1,09667       -98,75         
2890,0000     1,09524       -99,75         
2900,0000     1,09476       -100,88        
2910,0000     1,0923        -102,11        
2920,0000     1,09058       -103,43        
2930,0000     1,08871       -104,82        
2940,0000     1,08625       -106,22        
2950,0000     1,0852        -107,70        
2960,0000     1,08277       -109,19        
2970,0000     1,07921       -110,72        
2980,0000     1,07544       -112,18        
2990,0000     1,07198       -113,65        
3000,0000     1,06861       -115,08        
