!    07.03.2025   13:31:48 
! Ref Plane: 0,000 mm
# MHZ S MA R  50
!
1000,0000     1,04972       117,06         
1010,0000     1,04278       115,63         
1020,0000     1,0356        114,21         
1030,0000     1,02857       112,79         
1040,0000     1,02164       111,41         
1050,0000     1,01496       110,06         
1060,0000     1,00854       108,76         
1070,0000     1,00244       107,48         
1080,0000     0,99651       106,24         
1090,0000     0,99087       105,04         
1100,0000     0,98536       103,88         
1110,0000     0,98003       102,70         
1120,0000     0,97475       101,53         
1130,0000     0,96942       100,31         
1140,0000     0,96403       99,03          
1150,0000     0,95838       97,71          
1160,0000     0,95257       96,31          
1170,0000     0,94698       94,86          
1180,0000     0,94118       93,33          
1190,0000     0,93547       91,79          
1200,0000     0,92938       90,21          
1210,0000     0,92325       88,61          
1220,0000     0,91721       87,03          
1230,0000     0,91103       85,49          
1240,0000     0,90494       83,98          
1250,0000     0,8986        82,50          
1260,0000     0,8917        81,05          
1270,0000     0,88511       79,59          
1280,0000     0,87834       78,15          
1290,0000     0,87203       76,68          
1300,0000     0,8662        75,20          
1310,0000     0,86052       73,69          
1320,0000     0,85551       72,16          
1330,0000     0,85104       70,61          
1340,0000     0,84671       69,02          
1350,0000     0,84323       67,37          
1360,0000     0,83988       65,68          
1370,0000     0,837         63,97          
1380,0000     0,83414       62,24          
1390,0000     0,83135       60,52          
1400,0000     0,82825       58,78          
1410,0000     0,82447       57,04          
1420,0000     0,82085       55,27          
1430,0000     0,8173        53,52          
1440,0000     0,81363       51,78          
1450,0000     0,80974       50,05          
1460,0000     0,8058        48,32          
1470,0000     0,80219       46,64          
1480,0000     0,7988        44,99          
1490,0000     0,79553       43,30          
1500,0000     0,79261       41,60          
1510,0000     0,7888        39,93          
1520,0000     0,78683       38,27          
1530,0000     0,78581       36,47          
1540,0000     0,78453       34,58          
1550,0000     0,78361       32,78          
1560,0000     0,78363       31,08          
1570,0000     0,78587       29,37          
1580,0000     0,78818       27,57          
1590,0000     0,78989       25,85          
1600,0000     0,79153       24,25          
1610,0000     0,79425       22,62          
1620,0000     0,79738       21,06          
1630,0000     0,79945       19,51          
1640,0000     0,80132       17,96          
1650,0000     0,8026        16,49          
1660,0000     0,80405       15,05          
1670,0000     0,80522       13,47          
1680,0000     0,8067        11,82          
1690,0000     0,808         10,12          
1700,0000     0,80934       8,42           
1710,0000     0,81148       6,67           
1720,0000     0,81365       4,81           
1730,0000     0,81664       2,96           
1740,0000     0,81948       1,10           
1750,0000     0,82261       -0,67          
1760,0000     0,82702       -2,41          
1770,0000     0,83195       -4,11          
1780,0000     0,8372        -5,76          
1790,0000     0,84207       -7,23          
1800,0000     0,84685       -8,50          
1810,0000     0,85278       -9,76          
1820,0000     0,8582        -11,03         
1830,0000     0,86255       -12,18         
1840,0000     0,86745       -13,20         
1850,0000     0,87312       -14,22         
1860,0000     0,87836       -15,37         
1870,0000     0,88211       -16,63         
1880,0000     0,88519       -17,94         
1890,0000     0,88865       -19,27         
1900,0000     0,89213       -20,77         
1910,0000     0,89602       -22,46         
1920,0000     0,8998        -24,29         
1930,0000     0,90341       -26,10         
1940,0000     0,90818       -27,87         
1950,0000     0,9148        -29,76         
1960,0000     0,92124       -31,74         
1970,0000     0,92699       -33,62         
1980,0000     0,934         -35,31         
1990,0000     0,94168       -36,90         
2000,0000     0,9487        -38,40         
2010,0000     0,9549        -39,79         
2020,0000     0,9599        -41,01         
2030,0000     0,96494       -42,08         
2040,0000     0,96912       -43,15         
2050,0000     0,97216       -44,24         
2060,0000     0,9745        -45,40         
2070,0000     0,97614       -46,56         
2080,0000     0,97749       -47,77         
2090,0000     0,97958       -49,11         
2100,0000     0,98146       -50,66         
2110,0000     0,98322       -52,33         
2120,0000     0,98593       -54,09         
2130,0000     0,98986       -55,93         
2140,0000     0,99481       -57,89         
2150,0000     0,9996        -59,94         
2160,0000     1,00385       -61,94         
2170,0000     1,00956       -63,92         
2180,0000     1,01365       -65,87         
2190,0000     1,01734       -67,82         
2200,0000     1,01942       -69,73         
2210,0000     1,02048       -71,54         
2220,0000     1,0199        -73,18         
2230,0000     1,01879       -74,91         
2240,0000     1,01495       -76,60         
2250,0000     1,00932       -78,41         
2260,0000     1,00137       -80,32         
2270,0000     0,99311       -82,40         
2280,0000     0,98319       -84,71         
2290,0000     0,97076       -87,30         
2300,0000     0,95551       -90,24         
2310,0000     0,93817       -93,35         
2320,0000     0,91922       -97,05         
2330,0000     0,89504       -101,02        
2340,0000     0,86746       -105,24        
2350,0000     0,83683       -109,73        
2360,0000     0,80034       -114,55        
2370,0000     0,75975       -119,35        
2380,0000     0,71217       -124,54        
2390,0000     0,66038       -130,02        
2400,0000     0,59626       -135,57        
2410,0000     0,53059       -141,54        
2420,0000     0,45603       -148,85        
2430,0000     0,36379       -157,93        
2440,0000     0,26577       -168,41        
2450,0000     0,17126       174,84         
2460,0000     0,0984        136,24         
2470,0000     0,11329       69,99          
2480,0000     0,19348       38,38          
2490,0000     0,28437       24,52          
2500,0000     0,37257       14,33          
2510,0000     0,45201       7,06           
2520,0000     0,52659       0,35           
2530,0000     0,58973       -5,50          
2540,0000     0,64385       -10,92         
2550,0000     0,69263       -15,79         
2560,0000     0,73598       -20,45         
2570,0000     0,77544       -25,03         
2580,0000     0,80822       -28,99         
2590,0000     0,84478       -32,68         
2600,0000     0,87565       -36,31         
2610,0000     0,90561       -39,62         
2620,0000     0,93065       -42,67         
2630,0000     0,95534       -45,50         
2640,0000     0,97844       -48,17         
2650,0000     0,99634       -50,67         
2660,0000     1,01151       -52,84         
2670,0000     1,02408       -54,85         
2680,0000     1,03488       -56,72         
2690,0000     1,04403       -58,63         
2700,0000     1,04947       -60,43         
2710,0000     1,05657       -62,23         
2720,0000     1,0616        -64,04         
2730,0000     1,0666        -65,89         
2740,0000     1,06882       -67,72         
2750,0000     1,07222       -69,47         
2760,0000     1,07492       -71,29         
2770,0000     1,07757       -73,19         
2780,0000     1,07931       -75,05         
2790,0000     1,08244       -76,87         
2800,0000     1,08338       -78,64         
2810,0000     1,08526       -80,24         
2820,0000     1,08587       -81,84         
2830,0000     1,08485       -83,34         
2840,0000     1,08291       -84,71         
2850,0000     1,08258       -86,02         
2860,0000     1,08151       -87,27         
2870,0000     1,08102       -88,50         
2880,0000     1,07989       -89,64         
2890,0000     1,07981       -90,69         
2900,0000     1,07982       -91,91         
2910,0000     1,07862       -93,19         
2920,0000     1,07735       -94,59         
2930,0000     1,07671       -96,05         
2940,0000     1,07512       -97,55         
2950,0000     1,07472       -99,11         
2960,0000     1,07265       -100,71        
2970,0000     1,06961       -102,30        
2980,0000     1,06683       -103,86        
2990,0000     1,06384       -105,41        
3000,0000     1,06105       -106,93        
