!    07.03.2025   13:26:20 
! Ref Plane: 0,000 mm
# MHZ S MA R  50
!
1000,0000     1,0523        117,27         
1010,0000     1,04552       115,83         
1020,0000     1,0384        114,42         
1030,0000     1,03119       113,02         
1040,0000     1,02442       111,63         
1050,0000     1,01785       110,29         
1060,0000     1,01142       108,98         
1070,0000     1,00518       107,72         
1080,0000     0,99944       106,49         
1090,0000     0,99383       105,30         
1100,0000     0,98832       104,15         
1110,0000     0,98309       102,97         
1120,0000     0,97776       101,80         
1130,0000     0,97251       100,60         
1140,0000     0,96714       99,34          
1150,0000     0,96141       98,01          
1160,0000     0,95565       96,63          
1170,0000     0,95021       95,17          
1180,0000     0,94441       93,67          
1190,0000     0,93865       92,14          
1200,0000     0,93267       90,57          
1210,0000     0,92662       88,98          
1220,0000     0,92067       87,42          
1230,0000     0,9147        85,89          
1240,0000     0,90846       84,39          
1250,0000     0,90211       82,93          
1260,0000     0,89536       81,50          
1270,0000     0,88866       80,07          
1280,0000     0,88216       78,63          
1290,0000     0,87599       77,17          
1300,0000     0,8702        75,71          
1310,0000     0,86454       74,21          
1320,0000     0,85951       72,67          
1330,0000     0,8551        71,15          
1340,0000     0,85084       69,56          
1350,0000     0,84723       67,93          
1360,0000     0,84423       66,26          
1370,0000     0,84132       64,56          
1380,0000     0,83845       62,84          
1390,0000     0,83571       61,14          
1400,0000     0,83269       59,42          
1410,0000     0,82906       57,69          
1420,0000     0,82518       55,96          
1430,0000     0,8216        54,21          
1440,0000     0,8181        52,50          
1450,0000     0,81433       50,79          
1460,0000     0,8104        49,08          
1470,0000     0,80704       47,41          
1480,0000     0,80372       45,78          
1490,0000     0,80048       44,09          
1500,0000     0,79733       42,40          
1510,0000     0,79363       40,74          
1520,0000     0,79156       39,10          
1530,0000     0,79065       37,30          
1540,0000     0,7892        35,45          
1550,0000     0,78828       33,68          
1560,0000     0,78827       32,02          
1570,0000     0,79012       30,31          
1580,0000     0,79239       28,52          
1590,0000     0,79409       26,84          
1600,0000     0,79593       25,26          
1610,0000     0,79887       23,65          
1620,0000     0,80201       22,11          
1630,0000     0,80426       20,56          
1640,0000     0,8058        19,03          
1650,0000     0,80719       17,59          
1660,0000     0,80865       16,16          
1670,0000     0,80983       14,58          
1680,0000     0,81114       12,94          
1690,0000     0,81226       11,27          
1700,0000     0,81364       9,61           
1710,0000     0,81561       7,89           
1720,0000     0,81774       6,05           
1730,0000     0,8204        4,23           
1740,0000     0,82315       2,40           
1750,0000     0,82646       0,65           
1760,0000     0,83106       -1,05          
1770,0000     0,83577       -2,75          
1780,0000     0,84103       -4,39          
1790,0000     0,84585       -5,82          
1800,0000     0,8508        -7,07          
1810,0000     0,85665       -8,31          
1820,0000     0,86208       -9,56          
1830,0000     0,86639       -10,68         
1840,0000     0,87136       -11,68         
1850,0000     0,87693       -12,67         
1860,0000     0,88204       -13,78         
1870,0000     0,88589       -14,99         
1880,0000     0,88926       -16,27         
1890,0000     0,89274       -17,57         
1900,0000     0,89636       -19,01         
1910,0000     0,90015       -20,67         
1920,0000     0,90427       -22,43         
1930,0000     0,90759       -24,25         
1940,0000     0,91213       -25,96         
1950,0000     0,91878       -27,82         
1960,0000     0,9245        -29,74         
1970,0000     0,93048       -31,57         
1980,0000     0,9374        -33,22         
1990,0000     0,94521       -34,74         
2000,0000     0,9529        -36,20         
2010,0000     0,95914       -37,57         
2020,0000     0,96433       -38,76         
2030,0000     0,9693        -39,78         
2040,0000     0,974         -40,80         
2050,0000     0,97731       -41,87         
2060,0000     0,97995       -42,96         
2070,0000     0,98172       -44,08         
2080,0000     0,98293       -45,21         
2090,0000     0,98526       -46,47         
2100,0000     0,98736       -47,91         
2110,0000     0,99          -49,50         
2120,0000     0,99276       -51,22         
2130,0000     0,99595       -52,95         
2140,0000     1,00164       -54,81         
2150,0000     1,00651       -56,76         
2160,0000     1,01122       -58,68         
2170,0000     1,01694       -60,56         
2180,0000     1,02105       -62,40         
2190,0000     1,02507       -64,23         
2200,0000     1,02857       -66,05         
2210,0000     1,03016       -67,73         
2220,0000     1,03157       -69,29         
2230,0000     1,0301        -70,89         
2240,0000     1,02817       -72,44         
2250,0000     1,02255       -74,13         
2260,0000     1,01607       -75,87         
2270,0000     1,00781       -77,76         
2280,0000     0,99941       -79,88         
2290,0000     0,98588       -82,20         
2300,0000     0,97333       -84,71         
2310,0000     0,95853       -87,76         
2320,0000     0,93703       -91,13         
2330,0000     0,91403       -94,79         
2340,0000     0,88565       -98,78         
2350,0000     0,85292       -102,84        
2360,0000     0,81756       -107,29        
2370,0000     0,77472       -111,84        
2380,0000     0,7277        -116,90        
2390,0000     0,66411       -122,09        
2400,0000     0,59236       -127,61        
2410,0000     0,50673       -132,32        
2420,0000     0,41773       -136,92        
2430,0000     0,31619       -143,39        
2440,0000     0,20211       -146,45        
2450,0000     0,08513       -150,29        
2460,0000     0,03917       0,46           
2470,0000     0,15924       6,75           
2480,0000     0,26875       3,30           
2490,0000     0,37776       -1,13          
2500,0000     0,47004       -6,73          
2510,0000     0,55183       -11,43         
2520,0000     0,62258       -16,07         
2530,0000     0,68238       -20,48         
2540,0000     0,73417       -24,61         
2550,0000     0,78127       -28,75         
2560,0000     0,82111       -32,68         
2570,0000     0,85733       -36,54         
2580,0000     0,88887       -40,18         
2590,0000     0,91696       -43,43         
2600,0000     0,94404       -46,46         
2610,0000     0,96923       -49,23         
2620,0000     0,99098       -51,94         
2630,0000     1,01105       -54,42         
2640,0000     1,02687       -56,72         
2650,0000     1,04128       -58,69         
2660,0000     1,05341       -60,53         
2670,0000     1,06395       -62,19         
2680,0000     1,07344       -63,84         
2690,0000     1,08022       -65,54         
2700,0000     1,08482       -67,20         
2710,0000     1,0888        -68,89         
2720,0000     1,09206       -70,55         
2730,0000     1,09415       -72,29         
2740,0000     1,09559       -73,92         
2750,0000     1,09811       -75,60         
2760,0000     1,09861       -77,32         
2770,0000     1,09868       -79,07         
2780,0000     1,09922       -80,81         
2790,0000     1,09969       -82,45         
2800,0000     1,10166       -84,05         
2810,0000     1,10193       -85,61         
2820,0000     1,10109       -87,06         
2830,0000     1,09889       -88,43         
2840,0000     1,0964        -89,70         
2850,0000     1,09534       -90,94         
2860,0000     1,09359       -92,12         
2870,0000     1,09209       -93,27         
2880,0000     1,0909        -94,33         
2890,0000     1,08992       -95,36         
2900,0000     1,0896        -96,50         
2910,0000     1,08762       -97,74         
2920,0000     1,08644       -99,09         
2930,0000     1,0847        -100,50        
2940,0000     1,08285       -101,94        
2950,0000     1,08237       -103,43        
2960,0000     1,08007       -104,99        
2970,0000     1,07667       -106,55        
2980,0000     1,07277       -108,08        
2990,0000     1,06925       -109,55        
3000,0000     1,06613       -111,00        
